!CSV A.01.01
!Keysight Technologies,P9373B,MY61100323,A.17.25.05
!Date: Friday, May 16, 2025 13:57:53
!Source: Standard

BEGIN CH1_DATA
Freq(Hz),S11(DB),S11(DEG),S12(DB),S12(DEG),S21(DB),S21(DEG),S22(DB),S22(DEG)
9000,0.010878145,-1.5689471,-89.467369,1.5493066,-96.15744,-131.20087,0.016488567,-0.017878627
9049.2976479265,0.012337315,-1.5622854,-93.768799,2.2815738,-98.524841,-87.321037,0.018365519,-0.016167469
9098.8653245297,0.010316756,-1.5789245,-89.558212,105.70239,-101.53764,94.154663,0.016712399,-0.0099981772
9148.7045088962,0.012308405,-1.594943,-97.384483,36.543003,-94.466827,-175.97137,0.015028728,-0.0026720066
9198.8166882143,0.012117903,-1.5909398,-91.713104,-93.198196,-88.250702,144.44987,0.015332601,-0.0043942402
9249.2033578183,0.011623281,-1.60364,-87.848885,18.993429,-94.393494,-156.83713,0.014090149,-0.0038507243
9299.8660212332,0.011941332,-1.6103222,-90.417511,155.83064,-93.035828,-31.828613,0.01631269,-0.013290203
9350.8061902196,0.010914294,-1.6247029,-93.137238,108.00311,-94.464539,-10.745186,0.013927592,-0.014213174
9402.0253848189,0.01061631,-1.6380197,-94.003624,-111.6442,-98.474091,4.7206998,0.014337325,-0.0077704308
9453.5251333985,0.010995371,-1.6357355,-94.259613,148.05824,-93.628899,66.22068,0.014107694,-0.013341364
9505.3069726974,0.010247545,-1.6529632,-93.722496,120.63678,-97.923859,-33.188602,0.015058652,-0.0088314777
9557.3724478722,0.01044536,-1.6709154,-91.153938,126.53702,-106.11314,-132.76512,0.012758555,-0.012381314
9609.723112543,0.011309338,-1.6618685,-96.021416,54.267582,-98.837341,-173.19026,0.014415759,-0.011089175
9662.36052884,0.011818452,-1.679369,-93.444023,123.64917,-93.500076,-25.27322,0.012920123,-0.0089308918
9715.2862674499,0.010146827,-1.683905,-87.903854,113.44849,-99.26622,-149.851,0.015033888,-0.0021631301
9768.501907663,0.010508886,-1.6899697,-92.208359,14.812252,-102.49117,95.410378,0.014934312,-0.014608489
9822.00903742,0.0095218029,-1.7017519,-104.44947,-168.50806,-96.881981,-40.56485,0.014209868,-0.0057870611
9875.8092533597,0.0096695442,-1.7056406,-86.08223,82.567726,-91.665764,176.43288,0.013441951,-0.00036554266
9929.9041608664,0.0097671747,-1.7261977,-91.551361,-146.30371,-88.598228,139.59778,0.014023062,-0.0094958022
9984.2953741182,0.0097201671,-1.7303535,-95.54361,-128.80232,-100.16956,-2.7255397,0.014284692,-0.0063868137
10038.984516135,0.0089313062,-1.7399652,-93.303696,-163.79082,-95.943993,117.51932,0.013759352,-0.0061735613
10093.973218825,0.0099913543,-1.7505997,-91.420898,13.504633,-94.409889,-13.654983,0.014464263,-0.013033704
10149.263123039,0.010727347,-1.7525051,-91.569275,102.68835,-90.053596,77.335533,0.012750296,-0.0092712753
10204.855878611,0.010782605,-1.7668527,-98.068352,88.929169,-91.927544,-13.046024,0.0120544,-0.0054988298
10260.753144416,0.0085670482,-1.776739,-88.367043,40.406059,-100.48759,-95.811371,0.01415104,0.00039598555
10316.956588413,0.010985044,-1.7791371,-106.44727,-70.475021,-90.613197,70.446602,0.01208228,-0.010851513
10373.467887698,0.0090377359,-1.796766,-88.013023,31.860483,-88.227623,57.053139,0.011550994,-0.01358499
10430.288728554,0.010807394,-1.8122283,-94.202721,47.528999,-87.414001,50.681419,0.012959869,-0.019221336
10487.4208065,0.0096612787,-1.8054178,-96.844803,-60.381973,-86.095367,104.95496,0.013355242,-0.0028258581
10544.865826342,0.010184532,-1.8225294,-85.540428,125.16211,-89.767708,-84.134377,0.013386725,-0.014741091
10602.625502224,0.0088414066,-1.8307275,-100.39433,-97.268761,-91.103531,-68.273087,0.014462199,0.00066531502
10660.70155768,0.010282667,-1.85105,-93.835785,-141.17068,-93.989464,131.7925,0.013194722,-0.0056327991
10719.095725684,0.0095693292,-1.8576616,-99.318558,118.77307,-98.180397,-142.91913,0.011674915,-0.0017182563
10777.809748704,0.010166971,-1.8658932,-93.662209,69.793182,-95.664421,-175.67201,0.013078587,-0.01450702
10836.845378749,0.0079278443,-1.8522626,-93.441475,51.295418,-90.779282,164.90375,0.012378098,-0.0064784805
10896.204377429,0.0082616685,-1.8823634,-94.286171,-41.277672,-90.072433,-35.451023,0.012252132,-0.0057128062
10955.888515999,0.0084420051,-1.8922499,-109.11024,121.19823,-94.400261,-18.217163,0.014462199,-0.0092167621
11015.89957542,0.0090924995,-1.8990259,-89.309273,6.4404335,-90.266304,41.251038,0.011730161,-0.021266643
11076.239346404,0.0082037933,-1.9089557,-100.06051,83.738083,-88.371536,-170.20451,0.010721666,0.0031997536
11136.909629476,0.0082074106,-1.9216595,-89.593994,92.271919,-100.75262,156.07124,0.012248002,-0.0070949323
11197.912235021,0.0085453466,-1.9271435,-92.795052,130.55997,-99.525139,12.295676,0.012208766,-0.0071876026
11259.24898334,0.0092381882,-1.9392574,-97.536758,-53.04459,-92.777809,83.533417,0.013591107,-0.0077982703
11320.921704707,0.0090651177,-1.9522798,-101.26187,-172.57182,-106.86976,115.57841,0.014163426,-0.0078425854
11382.932239418,0.0098317433,-1.9622741,-100.61873,136.47366,-92.505997,157.33781,0.012706419,-0.014527676
11445.282437852,0.0087757893,-1.9691882,-87.570061,150.07587,-97.153404,94.224251,0.014197484,-0.0061684023
11507.974160523,0.010530578,-1.969703,-94.604843,47.457905,-91.550591,164.4644,0.013234982,-0.019711643
11571.009278136,0.0087732058,-1.9927399,-96.343544,125.77646,-84.972946,-32.184326,0.013724259,0.00088305981
11634.389671641,0.0088992734,-2.0013297,-110.43806,84.606834,-99.303772,120.19102,0.012992388,-0.0080848476
11698.117232294,0.0096364841,-2.0060196,-114.02325,-90.444328,-92.407822,67.80526,0.01319369,-0.0075092637
11762.193861707,0.0088269403,-2.0252459,-100.40268,77.824951,-90.089821,-2.7767227,0.012291368,0.0020804217
11826.621471911,0.0091307303,-2.035563,-87.000282,-104.715,-97.585579,102.71593,0.013387241,0.00071766373
11891.401985409,0.0088388231,-2.038059,-93.554184,28.147139,-92.102982,-75.398643,0.012642925,-0.0067822905
11956.537335234,0.0076870206,-2.0601041,-119.28389,98.049339,-98.658569,14.774488,0.012526775,-0.0093311649
12022.029465009,0.009794035,-2.0629864,-103.24215,26.874002,-96.304176,62.354736,0.012534002,-0.0068585449
12087.880329001,0.0062862565,-2.0700157,-100.11577,135.96666,-91.872108,142.26332,0.01151898,-0.0047407169
12154.091892183,0.0092939828,-2.0951066,-92.391754,53.227886,-89.570396,73.533638,0.012572719,-0.0068164202
12220.66613029,0.0080105281,-2.0978577,-89.722321,-34.75946,-92.908905,28.320623,0.011774048,-0.00085261709
12287.605029881,0.0084022181,-2.1113615,-94.993797,-129.881,-96.106689,-179.62425,0.013094588,-0.011352682
12354.910588395,0.0088791233,-2.122782,-103.30051,53.972355,-104.12925,71.990997,0.012861794,0.0025413334
12422.584814211,0.0069830767,-2.1296997,-96.054924,68.909782,-99.594223,65.816757,0.010583773,0.002434582
12490.629726712,0.009164311,-2.142652,-100.452,58.678574,-97.902046,152.44957,0.012461729,-0.0059329462
12559.04735634,0.010008399,-2.1543453,-92.318291,-136.71194,-89.33416,174.52859,0.013135881,-0.0011533835
12627.839744658,0.0087148212,-2.1754212,-101.59655,32.848049,-91.765434,-73.413651,0.013894048,-0.01554168
12697.008944414,0.0079567833,-2.1764491,-91.681702,-3.3086655,-91.355682,-127.26247,0.011867501,-0.011551986
12766.557019598,0.0085417302,-2.1971266,-105.54998,24.373251,-97.777031,-137.01392,0.011949076,-0.009598597
12836.486045508,0.0091384798,-2.1968756,-99.592072,135.08803,-95.270836,94.070251,0.011265446,-0.0038563465
12906.798108806,0.0087132715,-2.2162089,-90.701935,-143.27197,-91.733894,159.24464,0.010208808,-0.010752213
12977.495307587,0.0082973232,-2.223381,-98.131989,-73.076118,-99.218521,141.72574,0.013496659,-0.005708125
13048.579751436,0.0083784489,-2.2308276,-95.996368,76.209587,-91.785889,-137.85394,0.011729645,-0.0060957903
13120.053561494,0.0080213798,-2.2531822,-98.024658,67.182899,-89.21804,-67.239014,0.012097768,0.0013315517
13191.918870522,0.0081547024,-2.2630394,-103.63194,-96.0933,-100.37046,-111.8954,0.011171464,-0.0095509337
13264.177822961,0.0085210614,-2.2697542,-93.261581,-153.56622,-96.765556,120.38921,0.011806577,-0.0042375713
13336.832575,0.009833293,-2.2872889,-94.486969,-5.5605531,-91.98629,-97.040031,0.011566483,-0.0037313814
13409.885294638,0.0076937391,-2.2952142,-98.808517,-10.212188,-91.161545,-91.843704,0.013913658,-0.012728516
13483.338161748,0.0088739563,-2.312407,-94.656181,38.579433,-89.357544,-116.03545,0.013659231,-0.0026926997
13557.193368144,0.0093229134,-2.3263993,-92.022148,-47.841957,-96.913147,-35.115913,0.012399781,0.0066091982
13631.453117648,0.0072740745,-2.3351889,-95.991455,-87.554092,-110.63129,-163.64915,0.01099124,-0.0024900262
13706.11962615,0.0088057565,-2.3539493,-104.73038,66.22345,-93.955727,-143.23698,0.012373968,-0.012719342
13781.19512168,0.0069422424,-2.3561761,-89.736504,158.64049,-100.23173,8.2089443,0.012721389,0.00023012824
13856.681844471,0.0086218184,-2.3736582,-99.951981,113.77833,-97.585899,157.36546,0.012806045,-0.0062627145
13932.582047026,0.0089178728,-2.4037817,-102.73846,-30.68162,-88.584808,66.665749,0.012414236,0.0054380442
14008.897994188,0.009715518,-2.3945804,-101.42649,77.595184,-89.790985,59.056671,0.012261425,0.0085135968
14085.631963205,0.0075862426,-2.4139154,-112.15131,-94.272057,-103.67121,53.797798,0.011025839,-0.012270723
14162.786243799,0.0080756396,-2.4251072,-95.693481,23.184397,-87.174568,169.70419,0.010959223,-0.0056754984
14240.363138233,0.0069680871,-2.4504859,-94.141624,178.57082,-87.547226,-28.96118,0.01255207,-0.013113302
14318.364961381,0.0088145398,-2.4494174,-96.404152,-157.16393,-89.279694,-164.27303,0.010047139,-0.009022723
14396.794040798,0.0084709413,-2.4677331,-93.992477,-138.9402,-91.021431,-31.637928,0.010200543,-0.0039677331
14475.652716786,0.0072508161,-2.4806175,-97.106689,-14.205028,-103.09153,155.2072,0.012362611,-0.0047161984
14554.943342468,0.0086895041,-2.4958215,-93.630547,-33.962029,-89.750198,-12.4789,0.011316051,-0.012823638
14634.668283855,0.00887034,-2.5054858,-88.92244,51.670219,-86.422066,-143.51674,0.01181174,-0.00149218
14714.829919919,0.0086486861,-2.5254588,-90.961189,163.98769,-89.747528,110.80283,0.012096219,-0.015712192
14795.430642663,0.0088253897,-2.5410378,-95.438126,29.958225,-94.986481,127.21934,0.011305723,0.00042137544
14876.47285719,0.0067949253,-2.5475149,-97.683647,-3.9669499,-91.549347,-156.63731,0.011402801,0.0060846424
14957.958981779,0.0077505871,-2.5639691,-96.684814,159.66679,-93.967453,139.56314,0.011294363,0.0038839919
15039.891447954,0.0085665314,-2.5689783,-95.055786,-90.520882,-98.556038,157.71147,0.011063021,0.0003929821
15122.27270056,0.0071996469,-2.5981989,-85.537209,-23.064157,-91.72126,-89.250008,0.010990207,-0.00010626699
15205.105197831,0.0086259516,-2.6089087,-96.485435,16.816107,-103.72736,-138.91646,0.012394618,-0.0064006723
15288.391411468,0.0076255202,-2.6266928,-91.333565,26.64197,-89.800133,115.35276,0.012006901,-0.0094741341
15372.133826708,0.0081252484,-2.6363819,-99.289673,107.95868,-89.123009,2.0190079,0.013161689,-0.0038680786
15456.334942405,0.0055334819,-2.6556582,-91.063385,-91.088585,-98.918129,172.75165,0.012792624,0.0067538535
15540.997271096,0.0069525801,-2.655375,-101.10337,-170.84778,-111.61352,10.626871,0.012342993,-0.0084693441
15626.123339085,0.0081733055,-2.6632433,-90.48925,108.16595,-91.823982,-179.76776,0.011877827,0.00024224694
15711.71568651,0.007082318,-2.6808388,-105.52105,-152.43271,-99.407936,29.79376,0.012326473,-0.0046278713
15797.776867425,0.0076611801,-2.6934063,-93.463707,-5.9615111,-115.9847,43.577229,0.010853873,-0.010015208
15884.309449873,0.0068316259,-2.7216618,-97.385849,-133.78966,-95.156624,-130.18968,0.01149213,-0.00014644174
15971.316015963,0.0075314599,-2.738373,-93.229332,-141.16473,-88.511627,113.5127,0.012878828,-0.014024566
16058.799161949,0.0066233082,-2.7426488,-88.435722,-45.504669,-91.783989,120.12559,0.011985733,-0.016987236
16146.761498306,0.0078115682,-2.7621424,-89.142174,-111.0393,-86.879265,29.474855,0.012208766,-0.0094093848
16235.205649805,0.0083774151,-2.7847707,-104.49367,142.20384,-107.03568,115.41827,0.012346091,-0.0072849207
16324.134255598,0.0093936883,-2.7773695,-90.259224,-96.75811,-91.026123,-17.145756,0.012705902,-0.0023716732
16413.549969291,0.0079681529,-2.7979169,-86.287476,-55.718658,-88.501328,-125.02716,0.011827229,-0.0068553197
16503.455459026,0.0075200899,-2.8215013,-94.030495,-127.48208,-90.955551,151.79796,0.0096840076,0.0015549615
16593.853407558,0.0081640044,-2.8271399,-93.511971,-118.04784,-101.96512,159.20706,0.012083312,0.0038903002
16684.746512339,0.0071862089,-2.8663764,-90.550087,127.82014,-89.258949,-27.621969,0.011953207,-0.00156095
16776.137485595,0.0072017144,-2.8721128,-99.764809,126.63606,-93.04509,116.50429,0.0099489987,-0.0045544649
16868.02905441,0.0065493863,-2.8788524,-90.317284,145.59128,-86.648361,-98.614967,0.01080946,0.0018946724
16960.423960803,0.0057361647,-2.9002233,-102.7719,-111.51421,-92.542892,25.58189,0.010561049,-0.0029954491
17053.324961814,0.0092232069,-2.921047,-88.733498,-103.88889,-89.302078,-61.044426,0.011812773,-0.00035767129
17146.734829586,0.0086528193,-2.9325502,-89.523987,-6.6467872,-85.929169,22.794228,0.01088176,0.0074799787
17240.656351443,0.0086905379,-2.9623897,-85.156006,-27.783161,-93.912636,141.75026,0.012025488,-0.010720497
17335.09232998,0.0080265477,-2.9593179,-87.859077,-99.03981,-86.509781,-128.68962,0.011194185,0.0080336817
17430.045583142,0.0073485007,-2.9757383,-88.372047,-118.09015,-92.058235,-139.45804,0.011963533,-0.0010515205
17525.518944309,0.0077929641,-2.9951658,-97.263748,153.04372,-98.948563,-65.449043,0.012655313,-0.0092443628
17621.515262381,0.0070781829,-3.0087655,-90.273117,-174.54514,-93.242668,128.61061,0.01372942,0.00063036842
17718.037401862,0.006791824,-3.0254505,-92.060173,37.967701,-94.765747,79.019363,0.012443145,-0.0034561369
17815.088242949,0.0077945143,-3.0608461,-94.018433,-99.720505,-90.369835,49.146275,0.012985161,0.0038465788
17912.670681614,0.0060794633,-3.0568745,-88.728249,101.82543,-103.2979,34.678638,0.010779507,0.0031013237
18010.78762969,0.0068874513,-3.0748713,-84.53109,132.10713,-91.332077,-123.01317,0.011141513,-0.0037244495
18109.442014962,0.0062578227,-3.1041784,-99.555374,-69.847473,-100.83732,106.39259,0.010588937,-0.010495177
18208.63678125,0.0080730561,-3.1189067,-95.186142,-27.174248,-89.269981,-139.62312,0.010602882,-0.0052652741
18308.374888502,0.0065493863,-3.1437266,-93.522675,39.525612,-87.981674,109.58321,0.013235498,-0.0037264023
18408.659312875,0.0062407628,-3.1454313,-96.250435,110.51685,-91.471626,114.06646,0.011644967,-0.0043741507
18509.493046831,0.006437209,-3.1577854,-102.78505,7.2357841,-92.670837,-45.039753,0.012536067,0.006936071
18610.879099222,0.0076389574,-3.1871393,-92.084106,127.42554,-91.98745,35.395542,0.011699698,-0.0072812792
18712.820495382,0.0057868338,-3.1984091,-99.067879,70.664398,-90.475243,-93.241196,0.0099376347,-0.0068557183
18815.320277214,0.0055805342,-3.2213349,-92.394791,-60.527122,-89.445686,-92.447342,0.011346,0.0071532242
18918.381503286,0.007441015,-3.2313874,-93.286522,-30.941368,-92.954407,34.869965,0.011356328,-0.013059923
19022.007248918,0.0091823936,-3.2536108,-101.01443,109.82776,-96.06044,-123.83027,0.010070899,-0.0012959656
19126.200606275,0.0055820853,-3.2785075,-101.59299,18.143183,-88.209534,47.851368,0.011406931,-0.00039720981
19230.964684459,0.0071701859,-3.2850449,-87.383789,37.701576,-91.738464,23.88559,0.0095538311,-0.0034870428
19336.302609604,0.0055696759,-3.3178139,-95.369896,23.700634,-106.29527,74.352531,0.010005817,-0.0039941519
19442.217524965,0.0056854947,-3.3155339,-107.81027,-156.687,-93.202774,-91.587631,0.012183986,0.0048136758
19548.712591015,0.0063162404,-3.335902,-89.902534,167.49411,-89.969696,-102.37222,0.0093585588,0.0016363874
19655.790985541,0.0083520962,-3.36783,-95.083427,-117.00803,-96.392342,-143.07477,0.011325345,-0.0060363347
19763.455903732,0.0062779849,-3.3683755,-100.39362,-111.53551,-95.537796,175.69182,0.012802948,-0.0056090499
19871.710558282,0.0054662637,-3.4000509,-103.19289,177.91093,-83.752579,-112.41969,0.009581727,0.0048946715
19980.558179482,0.0067458185,-3.4150586,-89.212227,-47.403397,-87.265793,166.43681,0.011881958,-0.0044503133
20090.002015316,0.005722722,-3.4329317,-89.499626,-80.272758,-88.82402,0.33197501,0.010331734,-0.011506806
20200.04533156,0.0063167573,-3.4330308,-86.286491,-119.2076,-92.160881,66.233009,0.0099903205,-0.012267149
20310.691411877,0.0063203759,-3.4628091,-102.95485,70.051422,-107.13087,-67.345383,0.01012565,0.0039355746
20421.943557917,0.0080911424,-3.5010643,-90.671623,115.23425,-95.160667,115.41669,0.013244788,-0.0071881036
20533.805089417,0.0077480031,-3.5119886,-96.88839,-53.283161,-86.562805,15.099327,0.012622275,0.0046196147
20646.279344293,0.0072859623,-3.5139174,-94.775841,-11.891264,-89.144218,-20.569609,0.013282983,-0.0073581934
20759.369678749,0.0059796819,-3.5404007,-96.081757,135.65608,-91.931694,80.139954,0.010099824,0.012332499
20873.079467371,0.0048871087,-3.5649743,-89.088326,-148.49426,-91.185814,-19.857586,0.010442261,-0.006882315
20987.412103229,0.0059372871,-3.59341,-94.760834,-28.638205,-92.821243,174.59106,0.0093151638,-0.013035569
21102.37099798,0.0068264566,-3.5927217,-96.209183,-38.984909,-84.521858,137.71681,0.012123582,0.0020315449
21217.959581965,0.0047474792,-3.6199968,-87.337524,-32.879181,-97.220078,-50.513248,0.010412306,-0.0020784733
21334.18130432,0.0048767659,-3.6383431,-91.508698,-21.257023,-100.77354,138.43793,0.013173044,-0.0032712845
21451.039633069,0.0026763021,-3.6652136,-84.47776,-62.880978,-106.6828,-113.35802,0.010045073,-0.00086946948
21568.538055234,0.0046771457,-3.6768441,-103.4322,8.5925388,-90.042595,134.86899,0.012762168,-0.023139473
21686.680076938,0.005100681,-3.6844897,-95.72081,81.175232,-87.692215,37.23753,0.010397844,-0.0013532111
21805.469223508,0.0030798556,-3.7315423,-98.876549,-147.95695,-93.39959,-141.37415,0.012715193,-0.0046337387
21924.90903958,0.0046792147,-3.749665,-96.47039,-29.76897,-85.188377,-76.208817,0.013120396,-0.0017185032
22045.003089208,0.0052289227,-3.761869,-87.16925,-131.91789,-83.60524,-13.402225,0.01345537,0.0039558038
22165.754955967,0.0043099453,-3.7943747,-94.987663,-105.69315,-99.816833,136.58075,0.012921154,0.0014736607
22287.168243061,0.0057191025,-3.8112473,-90.650963,-24.02195,-94.44651,85.033707,0.010203126,-0.020487513
22409.24657343,0.0067882058,-3.838063,-98.375694,160.41374,-102.3043,27.925419,0.011069218,0.007837466
22531.99358986,0.0041071959,-3.8635077,-93.841858,119.66949,-91.015823,117.28172,0.010421602,-0.0057391133
22655.412955091,0.0054404102,-3.8685448,-108.90539,45.617184,-86.816681,-89.290581,0.01199038,-0.0043253251
22779.508351923,0.0044320039,-3.8877923,-89.051613,-81.124794,-89.213226,97.650803,0.011821033,0.0031460335
22904.283483331,0.0052873543,-3.9003296,-101.85597,-80.394867,-90.121033,83.426926,0.012988258,-0.0055095879
23029.742072572,0.0047836802,-3.9377604,-89.272812,-165.88051,-95.575729,88.073936,0.012798818,-0.0022080177
23155.887863297,0.0038651256,-3.9405799,-90.629868,122.51038,-93.211937,70.364708,0.011604693,0.0049232137
23282.724619665,0.0044030412,-3.9651849,-87.323738,120.71918,-96.599998,-27.126431,0.01094373,-0.005294512
23410.256126451,0.0069530969,-3.9979599,-87.583488,41.697773,-92.322922,87.372284,0.012799851,0.00066315121
23538.486189161,0.0051011983,-3.9993043,-92.257507,-97.151871,-96.19297,141.29422,0.009833293,-0.0086475769
23667.418634147,0.0047050724,-4.0445638,-94.382935,-152.14261,-86.763832,-31.207108,0.012747714,0.01515762
23797.057308719,0.0049967403,-4.0538826,-84.205658,163.14291,-89.524513,-140.93047,0.0099851554,-0.0056238482
23927.406081263,0.0068445485,-4.1017151,-96.691879,-176.89024,-87.884323,-156.14212,0.011846849,0.0037670441
24058.46884135,0.0052387477,-4.1133881,-89.843224,138.00812,-99.001564,49.053864,0.010646264,-0.0095813563
24190.24949986,0.006467192,-4.125422,-94.70417,133.00552,-92.855278,156.70569,0.010658659,-0.0099903317
